#T	VDD	VOUT	VIN	I(V1)	I(VSUPPLY)
2.500250025002500109e-11	5.000000000000000000e+00	2.495668919767224825e+00	0.000000000000000000e+00	0.000000000000000000e+00	-2.504331080282775068e-01
5.000500050005000219e-11	5.000000000000000000e+00	2.496288746470469277e+00	0.000000000000000000e+00	0.000000000000000000e+00	-2.503711253579530838e-01
5.525405364733779887e-11	5.000000000000000000e+00	2.496418853709696073e+00	0.000000000000000000e+00	0.000000000000000000e+00	-2.503581146340304042e-01
6.047858311169313535e-11	5.000000000000000000e+00	2.496548346236003635e+00	0.000000000000000000e+00	0.000000000000000000e+00	-2.503451653813996147e-01
7.092764204040382122e-11	5.000000000000000000e+00	2.496807310790593704e+00	0.000000000000000000e+00	0.000000000000000000e+00	-2.503192689259406412e-01
9.182575989782518004e-11	5.000000000000000000e+00	2.497325157918488081e+00	0.000000000000000000e+00	0.000000000000000000e+00	-2.502674842131512034e-01
1.336219956126679106e-10	5.000000000000000000e+00	2.498360524335631716e+00	0.000000000000000000e+00	0.000000000000000000e+00	-2.501639475714368399e-01
2.172144670423533459e-10	5.000000000000000000e+00	2.500429946507017664e+00	0.000000000000000000e+00	0.000000000000000000e+00	-2.499570053542982395e-01
3.843994099017242165e-10	5.000000000000000000e+00	2.504563553726376401e+00	0.000000000000000000e+00	0.000000000000000000e+00	-2.495436446323623381e-01
7.187692956204659577e-10	5.000000000000000000e+00	2.512809863813145750e+00	0.000000000000000000e+00	0.000000000000000000e+00	-2.487190136236853977e-01
1.387509067057949440e-09	5.000000000000000000e+00	2.529219218375364342e+00	0.000000000000000000e+00	0.000000000000000000e+00	-2.470780781674635773e-01
2.387509067057949295e-09	5.000000000000000000e+00	2.553551202334241044e+00	0.000000000000000000e+00	0.000000000000000000e+00	-2.446448797715758683e-01
3.387509067057949151e-09	5.000000000000000000e+00	2.577638667831291475e+00	0.000000000000000000e+00	0.000000000000000000e+00	-2.422361332218708752e-01
4.387509067057949006e-09	5.000000000000000000e+00	2.601484072096400535e+00	0.000000000000000000e+00	0.000000000000000000e+00	-2.398515927953599469e-01
5.387509067057948862e-09	5.000000000000000000e+00	2.625089847666109311e+00	0.000000000000000000e+00	0.000000000000000000e+00	-2.374910152383890583e-01
6.387509067057948717e-09	5.000000000000000000e+00	2.648458402631764130e+00	0.000000000000000000e+00	0.000000000000000000e+00	-2.351541597418235763e-01
7.387509067057948573e-09	5.000000000000000000e+00	2.671592120885172505e+00	0.000000000000000000e+00	0.000000000000000000e+00	-2.328407879164827443e-01
8.387509067057948428e-09	5.000000000000000000e+00	2.694493362361790822e+00	0.000000000000000000e+00	0.000000000000000000e+00	-2.305506637688209404e-01
9.387509067057949111e-09	5.000000000000000000e+00	2.717164463281466880e+00	0.000000000000000000e+00	0.000000000000000000e+00	-2.282835536768533236e-01
1.038750906705794979e-08	5.000000000000000000e+00	2.739607736386764802e+00	0.000000000000000000e+00	0.000000000000000000e+00	-2.260392263663235091e-01
1.138750906705795048e-08	5.000000000000000000e+00	2.761825471178895874e+00	0.000000000000000000e+00	0.000000000000000000e+00	-2.238174528871104130e-01
1.238750906705795116e-08	5.000000000000000000e+00	2.783819934151275266e+00	0.000000000000000000e+00	0.000000000000000000e+00	-2.216180065898724627e-01
1.338750906705795184e-08	5.000000000000000000e+00	2.805593369020734418e+00	0.000000000000000000e+00	0.000000000000000000e+00	-2.194406631029265364e-01
1.438750906705795252e-08	5.000000000000000000e+00	2.827147996956406839e+00	0.000000000000000000e+00	0.000000000000000000e+00	-2.172852003093593276e-01
1.538750906705795155e-08	5.000000000000000000e+00	2.848486016806318410e+00	0.000000000000000000e+00	0.000000000000000000e+00	-2.151513983243681649e-01
1.638750906705795058e-08	5.000000000000000000e+00	2.869609605321696844e+00	0.000000000000000000e+00	0.000000000000000000e+00	-2.130390394728303161e-01
1.738750906705794961e-08	5.000000000000000000e+00	2.890520917379026500e+00	0.000000000000000000e+00	0.000000000000000000e+00	-2.109479082670973615e-01
1.838750906705794864e-08	5.000000000000000000e+00	2.911222086199877879e+00	0.000000000000000000e+00	0.000000000000000000e+00	-2.088777913850122236e-01
1.938750906705794767e-08	5.000000000000000000e+00	2.931715223568520656e+00	0.000000000000000000e+00	0.000000000000000000e+00	-2.068284776481479625e-01
2.038750906705794669e-08	5.000000000000000000e+00	2.952002420047349585e+00	0.000000000000000000e+00	0.000000000000000000e+00	-2.047997580002650364e-01
2.138750906705794572e-08	5.000000000000000000e+00	2.972085745190155670e+00	0.000000000000000000e+00	0.000000000000000000e+00	-2.027914254859844168e-01
2.238750906705794475e-08	5.000000000000000000e+00	2.991967247753240855e+00	0.000000000000000000e+00	0.000000000000000000e+00	-2.008032752296759205e-01
2.338750906705794378e-08	5.000000000000000000e+00	3.011648955904421054e+00	0.000000000000000000e+00	0.000000000000000000e+00	-1.988351044145579283e-01
2.438750906705794281e-08	5.000000000000000000e+00	3.031132877429924211e+00	0.000000000000000000e+00	0.000000000000000000e+00	-1.968867122620075738e-01
2.440637002846464059e-08	5.000000000000000000e+00	3.031498472296134672e+00	0.000000000000000000e+00	0.000000000000000000e+00	-1.968501527753865055e-01
2.444409195127803614e-08	5.000000000000000000e+00	3.032229453135380393e+00	0.000000000000000000e+00	0.000000000000000000e+00	-1.967770546914619223e-01
2.451953579690482725e-08	5.000000000000000000e+00	3.033690579638956830e+00	0.000000000000000000e+00	0.000000000000000000e+00	-1.966309420411043452e-01
2.467042348815840616e-08	5.000000000000000000e+00	3.036609495125966784e+00	0.000000000000000000e+00	0.000000000000000000e+00	-1.963390504924032998e-01
2.497219887066556730e-08	5.000000000000000000e+00	3.042434001412071432e+00	0.000000000000000000e+00	0.000000000000000000e+00	-1.957565998637928462e-01
2.498001405546332084e-08	5.000000000000000000e+00	3.042584604912387469e+00	0.000000000000000000e+00	0.000000000000000000e+00	-1.957415395137612479e-01
2.499564442505882794e-08	5.000000000000000000e+00	3.042885776252875374e+00	0.000000000000000000e+00	0.000000000000000000e+00	-1.957114223797124797e-01
2.499676822938145634e-08	5.000000000000000000e+00	3.042907428269223225e+00	0.000000000000000000e+00	0.000000000000000000e+00	-1.957092571780776891e-01
2.499901583802670983e-08	5.000000000000000000e+00	3.042950731564646905e+00	0.000000000000000000e+00	0.000000000000000000e+00	-1.957049268485352989e-01
2.499933443487111074e-08	5.000000000000000000e+00	3.042956869694838584e+00	0.000000000000000000e+00	0.000000000000000000e+00	-1.957043130355161364e-01
2.499997162855991586e-08	5.000000000000000000e+00	3.042969145895966676e+00	0.000000000000000000e+00	0.000000000000000000e+00	-1.957030854154033495e-01
2.500004712898466243e-08	5.000000000000000000e+00	3.042970600485176647e+00	2.356449233012581984e-04	-6.242214742099532167e-09	-1.957029399564823302e-01
2.500011050201303932e-08	5.000000000000000000e+00	3.042971821427428392e+00	5.525100651857375389e-04	-3.757786046269432073e-09	-1.957028178622571279e-01
2.500014707437984186e-08	5.000000000000000000e+00	3.042972526028840274e+00	7.353718991984064526e-04	-6.242215241352488145e-09	-1.957027474021159619e-01
2.500018177948873380e-08	5.000000000000000000e+00	3.042973194655512970e+00	9.088974436580919084e-04	-3.757786402758026334e-09	-1.957026805394486979e-01
2.500025118970651767e-08	5.000000000000000000e+00	3.042974531908156255e+00	1.255948532577462820e-03	-6.242215761929111449e-09	-1.957025468141843638e-01
2.500039001014208873e-08	5.000000000000000000e+00	3.042977206410632185e+00	1.950050710432748267e-03	-3.757787444149641579e-09	-1.957022793639368041e-01
2.500066765101322753e-08	5.000000000000000000e+00	3.042982555404332157e+00	3.338255066126775538e-03	-6.242217844116474113e-09	-1.957017444645667570e-01
2.500122293275550845e-08	5.000000000000000000e+00	3.042993253346732985e+00	6.114663777531373703e-03	-3.757791608822290894e-09	-1.957006746703267297e-01
2.500233349624006698e-08	5.000000000000000000e+00	3.043014649051542619e+00	1.166748120032402511e-02	-6.242226173312817367e-09	-1.956985350998457773e-01
2.500455462320918735e-08	5.000000000000000000e+00	3.043057439741200465e+00	2.277311604592587371e-02	-3.757808267289456745e-09	-1.956942560308799206e-01
2.500899687714742478e-08	5.000000000000000000e+00	3.043143018240755726e+00	4.498438573711302513e-02	-6.242259490209902781e-09	-1.956856981809244056e-01
2.501788138502390295e-08	5.000000000000000000e+00	3.043314163721481336e+00	8.940692511950387722e-02	-3.757874901102255680e-09	-1.956685836328518335e-01
2.503565040077685598e-08	5.000000000000000000e+00	3.043656408614555886e+00	1.782520038842690391e-01	-6.242392757826191560e-09	-1.956343591435443785e-01
2.507118843228276535e-08	5.000000000000000000e+00	3.044340714168531026e+00	3.559421614138159051e-01	-3.758141436339481993e-09	-1.955659285881469200e-01
2.514226449529458079e-08	5.000000000000000000e+00	3.044626977493460895e+00	7.113224764728930394e-01	-6.242925828298309882e-09	-1.955373022556539109e-01
2.528441662131821165e-08	5.000000000000000000e+00	3.043037570491709864e+00	1.422083106591047308e+00	-3.759207577284658315e-09	-1.956962429558289918e-01
2.553785837584404439e-08	5.000000000000000000e+00	3.040215068486639360e+00	2.689291879220211179e+00	-6.244903797701109345e-09	-1.959784931563360866e-01
2.584916509246498026e-08	5.000000000000000000e+00	3.036767758331611944e+00	4.245825462324890331e+00	-3.762031319640436759e-09	-1.963232241718387838e-01
2.587539594747380835e-08	5.000000000000000000e+00	3.036478265528792519e+00	4.376979737369031120e+00	-6.246591485559716241e-09	-1.963476957945398393e-01
2.588304701474860979e-08	5.000000000000000000e+00	3.036390417194671176e+00	4.415235073743038363e+00	-3.762200729251517186e-09	-1.873752311084182776e-01
2.588478575535204075e-08	5.000000000000000000e+00	3.036366795891583870e+00	4.423928776760193138e+00	-6.246638434592455151e-09	-1.542673582064352233e-01
2.588558450938169313e-08	5.000000000000000000e+00	3.036353342908657549e+00	4.427922546908455104e+00	-3.762213416746499210e-09	-1.222281724883897830e-01
2.588623625251194339e-08	5.000000000000000000e+00	3.036340296092981283e+00	4.431181262559706013e+00	-6.246645687045312676e-09	-9.074708191669497714e-02
2.588662011006624390e-08	5.000000000000000000e+00	3.036331657519467875e+00	4.433100550331208645e+00	-3.762218594774069996e-09	-7.250011861706999461e-02
2.588699979127880855e-08	5.000000000000000000e+00	3.036322456076357756e+00	4.434998956394031744e+00	-6.246649504730503212e-09	-5.614485133081500295e-02
2.588735152885479278e-08	5.000000000000000000e+00	3.036313415781144442e+00	4.436757644273953360e+00	-3.762222251842314605e-09	-4.315500874003374426e-02
2.588772838862135582e-08	5.000000000000000000e+00	3.036303271094030531e+00	4.438641943106768295e+00	-6.246653147754837331e-09	-3.179932656051777384e-02
2.588821434984397515e-08	5.000000000000000000e+00	3.036289647845856976e+00	4.441071749219864806e+00	-3.762226565911807853e-09	-2.086032593946861996e-02
2.588856370133686214e-08	5.000000000000000000e+00	3.036279564097211114e+00	4.442818506684299784e+00	-6.246657324301368208e-09	-1.518531982028612295e-02
2.588886072213750851e-08	5.000000000000000000e+00	3.036270852027253220e+00	4.444303610687531325e+00	-3.762229797867566930e-09	-1.151197967071735002e-02
2.588915645100645926e-08	5.000000000000000000e+00	3.036262081914476774e+00	4.445782255032285413e+00	-6.246660287985894478e-09	-8.695372459671323398e-03
2.588943299486943885e-08	5.000000000000000000e+00	3.036253813767680665e+00	4.447164974347183275e+00	-3.762232659274797113e-09	-6.665957253724030633e-03
2.588969787040953616e-08	5.000000000000000000e+00	3.036245847623597616e+00	4.448489352047669598e+00	-6.246662995047631354e-09	-5.155586209073012571e-03
2.588995672666628461e-08	5.000000000000000000e+00	3.036238028074620399e+00	4.449783633331412247e+00	-3.762235277957922773e-09	-4.003803834654602600e-03
2.589021323845240467e-08	5.000000000000000000e+00	3.036230253161936066e+00	4.451066192262012500e+00	-6.246665571852002190e-09	-3.112338923535426603e-03
2.589046955892063884e-08	5.000000000000000000e+00	3.036222463736057531e+00	4.452347794603182862e+00	-3.762237842074638378e-09	-2.417335431988801124e-03
2.589072745872682826e-08	5.000000000000000000e+00	3.036214610355462362e+00	4.453637293634129968e+00	-6.246668142998689248e-09	-1.873101630649973712e-03
2.589098867247658560e-08	5.000000000000000000e+00	3.036206643392012516e+00	4.454943362382916661e+00	-3.762240437668031362e-09	-1.445726333394844109e-03
2.589125502037041637e-08	5.000000000000000000e+00	3.036198509692548786e+00	4.456275101852070541e+00	-6.246670780753081007e-09	-1.109635866325134985e-03
2.589152849129235051e-08	5.000000000000000000e+00	3.036190150284169498e+00	4.457642456461742064e+00	-3.762243136802766561e-09	-8.453312049490847770e-04
2.589181134264335979e-08	5.000000000000000000e+00	3.036181497487843828e+00	4.459056713216788204e+00	-6.246673562340608910e-09	-6.377956931365168529e-04
2.589210621198524682e-08	5.000000000000000000e+00	3.036172471617083701e+00	4.460531059926223563e+00	-3.762246025425563213e-09	-4.753673976567008934e-04
2.589241624581316480e-08	5.000000000000000000e+00	3.036162977116507289e+00	4.462081229065812948e+00	-6.246676586832610550e-09	-3.489239504078919330e-04
2.589274526024178440e-08	5.000000000000000000e+00	3.036152897698603859e+00	4.463726301208911451e+00	-3.762249220730490385e-09	-2.512784154281198713e-04
2.589309795592627555e-08	5.000000000000000000e+00	3.036142089801514565e+00	4.465489779631367284e+00	-6.246679995398076803e-09	-1.767226355674495332e-04
2.589348022011787939e-08	5.000000000000000000e+00	3.036130373363558732e+00	4.467401100589386331e+00	-3.762252895482017667e-09	-1.206779788898684389e-04
2.589389956815629717e-08	5.000000000000000000e+00	3.036117518313773189e+00	4.469497840781475162e+00	-6.246684003448699416e-09	-7.942723198480660567e-05
2.589436581190572398e-08	5.000000000000000000e+00	3.036103224097328912e+00	4.471829059528609207e+00	-3.762257323430964697e-09	-4.991004161431221746e-05
2.589489210805695915e-08	5.000000000000000000e+00	3.036087087548359431e+00	4.474460540284784571e+00	-6.246688966160027654e-09	-2.956996184897794474e-05
2.589549666652441663e-08	5.000000000000000000e+00	3.036068550519060327e+00	4.477483332622072432e+00	-3.762262977734210680e-09	-1.624487538224444349e-05
2.589620566099530420e-08	5.000000000000000000e+00	3.036046810646001681e+00	4.481028304976510057e+00	-6.246695533905589189e-09	-8.094894006559605717e-06
2.589705845760968096e-08	5.000000000000000000e+00	3.036020661038256740e+00	4.485292288048394305e+00	-3.762270786697808636e-09	-3.563031591478824288e-06
2.589811763420011905e-08	5.000000000000000000e+00	3.035988183084573411e+00	4.490588171000584161e+00	-6.246705093749975410e-09	-1.363787428600621215e-06
2.589948977286391629e-08	5.000000000000000000e+00	3.035946108956103728e+00	4.497448864319570916e+00	-3.762282943292436324e-09	-4.924240082527605527e-07
2.590137315860308249e-08	5.000000000000000000e+00	3.035888359212651544e+00	4.506865793015401245e+00	-6.246721371367464193e-09	-2.414336236773601500e-07
2.590418220638304514e-08	5.000000000000000000e+00	3.035802228146263104e+00	4.520911031915214373e+00	-3.762306405455549890e-09	-1.991377545558418140e-07
2.590893168368670163e-08	5.000000000000000000e+00	3.035656605147777576e+00	4.544658418433496827e+00	-6.246759163991440545e-09	-1.964628253517864985e-07
2.591843063829401791e-08	5.000000000000000000e+00	3.035365380105018218e+00	4.592153191470078610e+00	-3.762377647619033051e-09	-1.964684637495580052e-07
2.593742854750865049e-08	5.000000000000000000e+00	3.034783013831424014e+00	4.687142737543241289e+00	-6.246901648310389833e-09	-1.965266986168576861e-07
2.597542436593791232e-08	5.000000000000000000e+00	3.033618616451625449e+00	4.877121829689550658e+00	-3.762662616256455171e-09	-1.966431383548374742e-07
2.601275974636981340e-08	5.000000000000000000e+00	3.032474893645976444e+00	5.000000000000000000e+00	-2.829612696724684216e-09	-1.967575106354023907e-07
2.604820969046496837e-08	5.000000000000000000e+00	3.031389327923094790e+00	5.000000000000000000e+00	2.819612696724655093e-09	-1.968660672076904824e-07
2.607804061700911313e-08	5.000000000000000000e+00	3.030476131641182125e+00	5.000000000000000000e+00	-2.829612696724687525e-09	-1.969573868358817903e-07
2.610696785934449787e-08	5.000000000000000000e+00	3.029590862027322196e+00	5.000000000000000000e+00	2.819612696724724162e-09	-1.970459137972677814e-07
2.616482234401527066e-08	5.000000000000000000e+00	3.027821098508516773e+00	5.000000000000000000e+00	-2.829612696724675944e-09	-1.972228901491483042e-07
2.628053131335681625e-08	5.000000000000000000e+00	3.024284672041534172e+00	5.000000000000000000e+00	2.819612696724664605e-09	-1.975765327958465802e-07
2.651194925203990412e-08	5.000000000000000000e+00	3.017224203293647822e+00	5.000000000000000000e+00	-2.829612696724662709e-09	-1.982825796706351969e-07
2.697478512940608317e-08	5.000000000000000000e+00	3.003152658150433307e+00	5.000000000000000000e+00	2.819612696724671223e-09	-1.996897341849566830e-07
2.790045688413844126e-08	5.000000000000000000e+00	2.975205988186750972e+00	5.000000000000000000e+00	-2.829612696724669327e-09	-2.024844011813248730e-07
2.890045688413844029e-08	5.000000000000000000e+00	2.945307415896258885e+00	5.000000000000000000e+00	2.819612696724671223e-09	-2.054742584103740828e-07
2.990045688413843932e-08	5.000000000000000000e+00	2.915709302167619477e+00	5.000000000000000000e+00	-2.829612696724669327e-09	-2.084340697832380100e-07
3.090045688413844166e-08	5.000000000000000000e+00	2.886408627614271971e+00	5.000000000000000000e+00	2.819612696724671223e-09	-2.113641372385727654e-07
3.190045688413844399e-08	5.000000000000000000e+00	2.857402403192257800e+00	5.000000000000000000e+00	-2.829612696724669327e-09	-2.142647596807741895e-07
3.290045688413844633e-08	5.000000000000000000e+00	2.828687669895302736e+00	5.000000000000000000e+00	2.819612696724671223e-09	-2.171362330104697154e-07
3.390045688413844867e-08	5.000000000000000000e+00	2.800261498452959685e+00	5.000000000000000000e+00	-2.829612696724669327e-09	-2.199788501547040289e-07
3.490045688413845100e-08	5.000000000000000000e+00	2.772120989031785498e+00	5.000000000000000000e+00	2.819612696724671223e-09	-2.227929010968214114e-07
3.590045688413845334e-08	5.000000000000000000e+00	2.744263270939519384e+00	5.000000000000000000e+00	-2.829612696724669327e-09	-2.255786729060480480e-07
3.690045688413845568e-08	5.000000000000000000e+00	2.716685502332238489e+00	5.000000000000000000e+00	2.819612696724671223e-09	-2.283364497667761535e-07
3.790045688413845801e-08	5.000000000000000000e+00	2.689384869924450694e+00	5.000000000000000000e+00	-2.829612696724669327e-09	-2.310665130075549191e-07
3.890045688413846035e-08	5.000000000000000000e+00	2.662358588702105067e+00	5.000000000000000000e+00	2.819612696724671223e-09	-2.337691411297894976e-07
3.990045688413846269e-08	5.000000000000000000e+00	2.635603901638483570e+00	5.000000000000000000e+00	-2.829612696724669327e-09	-2.364446098361516527e-07
4.090045688413846503e-08	5.000000000000000000e+00	2.609118079412950486e+00	5.000000000000000000e+00	2.819612696724671223e-09	-2.390931920587049326e-07
4.190045688413846736e-08	5.000000000000000000e+00	2.582898420132525796e+00	5.000000000000000000e+00	-2.829612696724669327e-09	-2.417151579867474101e-07
4.290045688413846970e-08	5.000000000000000000e+00	2.556942249056257666e+00	5.000000000000000000e+00	2.819612696724671223e-09	-2.443107750943741883e-07
4.390045688413847204e-08	5.000000000000000000e+00	2.531246918322364703e+00	5.000000000000000000e+00	-2.829612696724669327e-09	-2.468803081677635077e-07
4.490045688413847437e-08	5.000000000000000000e+00	2.505809806678120921e+00	5.000000000000000000e+00	2.819612696724671223e-09	-2.494240193321878858e-07
